date Tue Aug 05 15:00:00 2025
base hex  timestamps absolute
internal events logged
// Body & Chassis CAN bus log - Door/Window, Lights, Steering/Brake
// Scenario: Enter car, drive through city with turns, park
Begin Triggerblock Tue Aug 05 15:00:00 2025
// Car parked, driver approaches, unlocks
   0.000000 1  400            Rx   d 8 00 00 00 00 00 00 00 00  Length = 245500 BitCount = 125 ID = 600
   0.002000 1  500            Rx   d 8 00 00 00 00 00 00 00 00  Length = 255500 BitCount = 115 ID = 700
   0.010000 1  600            Rx   d 8 00 00 00 00 00 00 00 00  Length = 245500 BitCount = 125 ID = 800
// Car unlocked, driver door opens
   0.200000 1  400            Rx   d 8 01 00 00 00 00 00 00 00  Length = 245500 BitCount = 125 ID = 600
   0.210000 1  500            Rx   d 8 01 00 00 00 00 00 00 00  Length = 255500 BitCount = 115 ID = 700
// Door open, interior light on
   0.400000 1  400            Rx   d 8 01 00 00 00 00 00 00 00  Length = 245500 BitCount = 125 ID = 600
   0.402000 1  500            Rx   d 8 01 00 00 00 00 00 00 03  Length = 255500 BitCount = 115 ID = 700
   0.410000 1  600            Rx   d 8 00 00 00 00 00 00 00 00  Length = 245500 BitCount = 125 ID = 800
// All doors closed, engine started, headlights on (auto)
   0.800000 1  400            Rx   d 8 00 00 00 00 00 00 00 0A  Length = 245500 BitCount = 125 ID = 600
   0.802000 1  500            Rx   d 8 02 00 00 00 00 30 00 C0  Length = 255500 BitCount = 115 ID = 700
   0.810000 1  600            Rx   d 8 00 00 00 00 00 00 00 00  Length = 245500 BitCount = 125 ID = 800
// Driving straight, slight steering right
   1.000000 1  400            Rx   d 8 00 00 00 00 00 00 00 0A  Length = 245500 BitCount = 125 ID = 600
   1.002000 1  500            Rx   d 8 02 00 00 00 00 32 00 C0  Length = 255500 BitCount = 115 ID = 700
   1.010000 1  600            Rx   d 8 0A 00 50 01 00 00 00 00  Length = 245500 BitCount = 125 ID = 800
// Approaching intersection, braking lightly
   1.200000 1  400            Rx   d 8 00 00 00 00 00 00 00 0A  Length = 245500 BitCount = 125 ID = 600
   1.202000 1  500            Rx   d 8 02 00 04 00 00 33 00 C0  Length = 255500 BitCount = 115 ID = 700
   1.210000 1  600            Rx   d 8 14 00 30 00 32 00 00 00  Length = 245500 BitCount = 125 ID = 800
// Turn signal left, turning left
   1.300000 1  400            Rx   d 8 00 00 00 00 00 00 00 0A  Length = 245500 BitCount = 125 ID = 600
   1.302000 1  500            Rx   d 8 02 01 04 00 00 33 00 C0  Length = 255500 BitCount = 115 ID = 700
   1.310000 1  600            Rx   d 8 C8 00 64 00 32 32 00 00  Length = 245500 BitCount = 125 ID = 800
// Left turn in progress
   1.400000 1  400            Rx   d 8 00 00 00 00 00 00 00 0A  Length = 245500 BitCount = 125 ID = 600
   1.402000 1  500            Rx   d 8 02 01 04 00 00 33 00 C0  Length = 255500 BitCount = 115 ID = 700
   1.410000 1  600            Rx   d 8 EC 04 96 00 32 46 00 00  Length = 245500 BitCount = 125 ID = 800
// Left turn, maximum steering angle
   1.500000 1  400            Rx   d 8 00 00 00 00 00 00 00 0A  Length = 245500 BitCount = 125 ID = 600
   1.502000 1  500            Rx   d 8 02 01 04 00 00 33 00 C0  Length = 255500 BitCount = 115 ID = 700
   1.510000 1  600            Rx   d 8 18 07 FA 00 32 5A 00 00  Length = 245500 BitCount = 125 ID = 800
// Coming out of left turn
   1.600000 1  400            Rx   d 8 00 00 00 00 00 00 00 0A  Length = 245500 BitCount = 125 ID = 600
   1.602000 1  500            Rx   d 8 02 01 00 00 00 34 00 C0  Length = 255500 BitCount = 115 ID = 700
   1.610000 1  600            Rx   d 8 20 03 E8 00 00 3C 00 00  Length = 245500 BitCount = 125 ID = 800
// Straight driving again, signal off
   1.800000 1  400            Rx   d 8 00 00 00 00 00 00 00 0A  Length = 245500 BitCount = 125 ID = 600
   1.802000 1  500            Rx   d 8 02 00 00 00 00 35 00 C0  Length = 255500 BitCount = 115 ID = 700
   1.810000 1  600            Rx   d 8 0A 00 A0 00 00 00 00 00  Length = 245500 BitCount = 125 ID = 800
// Ambient light getting darker, auto headlights stay on
   2.000000 1  400            Rx   d 8 00 00 00 00 00 00 00 0A  Length = 245500 BitCount = 125 ID = 600
   2.002000 1  500            Rx   d 8 02 00 00 00 00 25 00 C0  Length = 255500 BitCount = 115 ID = 700
   2.010000 1  600            Rx   d 8 0A 00 50 00 00 00 00 00  Length = 245500 BitCount = 125 ID = 800
// Turn signal right, preparing right turn
   2.200000 1  400            Rx   d 8 00 00 00 00 00 00 00 0A  Length = 245500 BitCount = 125 ID = 600
   2.202000 1  500            Rx   d 8 02 02 04 00 00 20 00 C0  Length = 255500 BitCount = 115 ID = 700
   2.210000 1  600            Rx   d 8 F4 01 3C 00 32 14 00 00  Length = 245500 BitCount = 125 ID = 800
// Right turn in progress
   2.300000 1  400            Rx   d 8 00 00 00 00 00 00 00 0A  Length = 245500 BitCount = 125 ID = 600
   2.302000 1  500            Rx   d 8 02 02 04 00 00 20 00 C0  Length = 255500 BitCount = 115 ID = 700
   2.310000 1  600            Rx   d 8 60 FE C8 00 32 28 00 00  Length = 245500 BitCount = 125 ID = 800
// Arrived, parking, slowing down
   2.500000 1  400            Rx   d 8 00 00 00 00 00 00 00 0A  Length = 245500 BitCount = 125 ID = 600
   2.502000 1  500            Rx   d 8 02 00 04 00 00 1E 00 C0  Length = 255500 BitCount = 115 ID = 700
   2.510000 1  600            Rx   d 8 14 00 50 04 00 00 00 00  Length = 245500 BitCount = 125 ID = 800
// Stopped, parking brake
   2.700000 1  400            Rx   d 8 00 00 00 00 00 00 00 0A  Length = 245500 BitCount = 125 ID = 600
   2.710000 1  500            Rx   d 8 02 00 04 00 00 1E 00 C0  Length = 255500 BitCount = 115 ID = 700
   2.720000 1  600            Rx   d 8 00 00 64 00 00 00 00 00  Length = 245500 BitCount = 125 ID = 800
// Engine off, driver door opens
   3.000000 1  400            Rx   d 8 01 00 00 00 00 00 00 00  Length = 245500 BitCount = 125 ID = 600
   3.010000 1  500            Rx   d 8 01 00 00 00 00 1E 00 C0  Length = 255500 BitCount = 115 ID = 700
   3.100000 1  400            Rx   d 8 01 00 00 00 00 00 00 00  Length = 245500 BitCount = 125 ID = 600
   3.102000 1  500            Rx   d 8 00 00 00 00 00 1E 00 03  Length = 255500 BitCount = 115 ID = 700
// All doors closed, car locked
   3.300000 1  400            Rx   d 8 00 00 00 00 00 00 00 01  Length = 245500 BitCount = 125 ID = 600
   3.310000 1  500            Rx   d 8 00 00 00 00 00 1E 00 00  Length = 255500 BitCount = 115 ID = 700
End Triggerblock
