date Tue Aug 05 14:30:00 2025
base hex  timestamps absolute
internal events logged
// PowerTrain CAN bus log - Engine data, Vehicle Speed, Fuel/Battery
// Vehicle startup and short drive scenario
Begin Triggerblock Tue Aug 05 14:30:00 2025
// Engine OFF, key-on
   0.000000 1  100            Rx   d 8 00 00 00 00 00 00 00 00  Length = 245500 BitCount = 125 ID = 386
   0.002000 1  200            Rx   d 8 00 00 00 00 00 00 00 00  Length = 255500 BitCount = 115 ID = 400
   0.010000 1  300            Rx   d 8 5A 8C 00 00 00 00 C8 00  Length = 245500 BitCount = 125 ID = 500
// Engine cranking and starting
   0.020000 1  300            Rx   d 8 5A 78 00 00 00 00 C8 00  Length = 245500 BitCount = 125 ID = 500
   0.500000 1  100            Rx   d 8 A0 0F 32 4B 1A 00 00 00  Length = 245500 BitCount = 125 ID = 386
   0.502000 1  200            Rx   d 8 00 00 00 00 00 00 00 00  Length = 255500 BitCount = 115 ID = 400
// Engine idling at ~1000 RPM
   0.600000 1  100            Rx   d 8 A0 0F 19 52 22 28 00 00  Length = 245500 BitCount = 125 ID = 386
   0.610000 1  300            Rx   d 8 5A 8C 00 00 00 00 C8 00  Length = 245500 BitCount = 125 ID = 500
   0.620000 1  200            Rx   d 8 00 00 00 00 00 00 00 00  Length = 255500 BitCount = 115 ID = 400
   0.700000 1  100            Rx   d 8 A0 0F 14 4E 22 28 00 00  Length = 245500 BitCount = 125 ID = 386
// RPM increasing ~1200, starting to move
   0.800000 1  100            Rx   d 8 C0 12 23 4E 24 28 00 00  Length = 245500 BitCount = 125 ID = 386
   0.802000 1  200            Rx   d 8 50 00 50 00 50 00 50 00  Length = 255500 BitCount = 115 ID = 400
   0.810000 1  300            Rx   d 8 59 8D 00 00 00 00 C4 00  Length = 245500 BitCount = 125 ID = 500
// RPM ~1500, speed ~8 km/h, accelerating
   0.900000 1  100            Rx   d 8 70 17 32 50 24 28 00 00  Length = 245500 BitCount = 125 ID = 386
   1.000000 1  200            Rx   d 8 20 03 20 03 20 03 20 03  Length = 255500 BitCount = 115 ID = 400
   1.002000 1  100            Rx   d 8 70 17 37 52 25 28 00 00  Length = 245500 BitCount = 125 ID = 386
   1.010000 1  300            Rx   d 8 58 8C 00 7A 9C 00 C0 00  Length = 245500 BitCount = 125 ID = 500
// RPM ~2200, speed ~20 km/h
   1.100000 1  100            Rx   d 8 60 22 3C 54 25 28 00 00  Length = 245500 BitCount = 125 ID = 386
   1.102000 1  200            Rx   d 8 D0 07 D0 07 D0 07 D0 07  Length = 255500 BitCount = 115 ID = 400
   1.200000 1  100            Rx   d 8 60 22 3C 55 26 28 00 00  Length = 245500 BitCount = 125 ID = 386
// RPM ~2500, speed ~35 km/h, cruising
   1.300000 1  100            Rx   d 8 10 27 32 58 27 28 00 00  Length = 245500 BitCount = 125 ID = 386
   1.302000 1  200            Rx   d 8 AC 0D AC 0D AC 0D AC 0D  Length = 255500 BitCount = 115 ID = 400
   1.310000 1  300            Rx   d 8 58 8C 00 6E 20 03 BE 00  Length = 245500 BitCount = 125 ID = 500
   1.400000 1  100            Rx   d 8 10 27 28 5A 28 28 00 00  Length = 245500 BitCount = 125 ID = 386
// RPM ~2800, speed ~50 km/h
   1.500000 1  100            Rx   d 8 C0 2B 2D 5C 29 28 00 00  Length = 245500 BitCount = 125 ID = 386
   1.502000 1  200            Rx   d 8 88 13 88 13 88 13 88 13  Length = 255500 BitCount = 115 ID = 400
   1.600000 1  100            Rx   d 8 C0 2B 23 5E 2A 28 00 00  Length = 245500 BitCount = 125 ID = 386
   1.610000 1  300            Rx   d 8 57 8C 00 5A D0 02 BC 00  Length = 245500 BitCount = 125 ID = 500
// RPM ~2000, speed ~60 km/h, steady cruise
   1.700000 1  100            Rx   d 8 40 1F 1E 60 2C 28 00 00  Length = 245500 BitCount = 125 ID = 386
   1.702000 1  200            Rx   d 8 70 17 70 17 70 17 70 17  Length = 255500 BitCount = 115 ID = 400
   1.800000 1  100            Rx   d 8 40 1F 14 62 2D 28 00 00  Length = 245500 BitCount = 125 ID = 386
// RPM ~1800, speed ~65 km/h
   1.900000 1  100            Rx   d 8 20 1C 14 64 2E 28 00 00  Length = 245500 BitCount = 125 ID = 386
   1.902000 1  200            Rx   d 8 64 19 64 19 64 19 64 19  Length = 255500 BitCount = 115 ID = 400
   1.910000 1  300            Rx   d 8 57 8C 00 50 78 01 BA 00  Length = 245500 BitCount = 125 ID = 500
   2.000000 1  100            Rx   d 8 20 1C 14 64 2E 28 01 00  Length = 245500 BitCount = 125 ID = 386
// Decelerating, RPM ~1500, speed ~40 km/h
   2.100000 1  100            Rx   d 8 70 17 19 5A 2C 28 02 00  Length = 245500 BitCount = 125 ID = 386
   2.102000 1  200            Rx   d 8 A0 0F A0 0F A0 0F A0 0F  Length = 255500 BitCount = 115 ID = 400
   2.200000 1  100            Rx   d 8 70 17 14 50 28 28 04 00  Length = 245500 BitCount = 125 ID = 386
// Coming to stop, RPM ~1000, speed ~5 km/h
   2.300000 1  100            Rx   d 8 A0 0F 0E 4C 24 28 06 00  Length = 245500 BitCount = 125 ID = 386
   2.302000 1  200            Rx   d 8 F4 01 F4 01 F4 01 F4 01  Length = 255500 BitCount = 115 ID = 400
   2.310000 1  300            Rx   d 8 56 8D 00 4B 00 00 B8 00  Length = 245500 BitCount = 125 ID = 500
// Stopped, idling ~900 RPM
   2.400000 1  100            Rx   d 8 10 0E 0F 4C 22 28 06 00  Length = 245500 BitCount = 125 ID = 386
   2.500000 1  200            Rx   d 8 00 00 00 00 00 00 00 00  Length = 255500 BitCount = 115 ID = 400
   2.600000 1  100            Rx   d 8 10 0E 0F 4C 22 28 08 00  Length = 245500 BitCount = 125 ID = 386
   2.610000 1  300            Rx   d 8 56 8C 00 4B 00 00 B8 00  Length = 245500 BitCount = 125 ID = 500
End Triggerblock
