date Tue Sep 19 10:00:00 2026
base hex  timestamps absolute
internal events logged
// version 11.0.0
// R12/#21 sample: ErrorFrame (Flags/Code), OverloadFrame, chip status, Statistic rows
Begin Triggerblock Tue Sep 19 10:00:00 2026
   0.000000 Start of measurement
   0.000000 CAN 1 Status:chip status error active
   0.010000 1 100 Rx d 8 7F DA 35 90 EB 46 A1 FC
   0.020000 1 100 Rx d 8 A4 FF 5A B5 10 6B C6 21
   0.030000 1 100 Rx d 8 C9 24 7F DA 35 90 EB 46
   0.040000 1 100 Rx d 8 EE 49 A4 FF 5A B5 10 6B
   0.050000 1 100 Rx d 8 13 6E C9 24 7F DA 35 90
   0.060000 1 100 Rx d 8 38 93 EE 49 A4 FF 5A B5
   0.070000 1 100 Rx d 8 5D B8 13 6E C9 24 7F DA
   0.080000 1 100 Rx d 8 82 DD 38 93 EE 49 A4 FF
   0.090000 1 100 Rx d 8 A7 02 5D B8 13 6E C9 24
   0.100000 1 101 Rx d 4 CC 27 82 DD
   0.110000 1 100 Rx d 8 F1 4C A7 02 5D B8 13 6E
   0.120000 1 100 Rx d 8 16 71 CC 27 82 DD 38 93
   0.130000 1 100 Rx d 8 3B 96 F1 4C A7 02 5D B8
   0.140000 1 100 Rx d 8 60 BB 16 71 CC 27 82 DD
   0.150000 1 100 Rx d 8 85 E0 3B 96 F1 4C A7 02
   0.160000 1 100 Rx d 8 AA 05 60 BB 16 71 CC 27
   0.170000 1 100 Rx d 8 CF 2A 85 E0 3B 96 F1 4C
   0.180000 1 100 Rx d 8 F4 4F AA 05 60 BB 16 71
   0.190000 1 100 Rx d 8 19 74 CF 2A 85 E0 3B 96
   0.200000 1 101 Rx d 4 3E 99 F4 4F
   0.210000 1 100 Rx d 8 63 BE 19 74 CF 2A 85 E0
   0.220000 1 100 Rx d 8 88 E3 3E 99 F4 4F AA 05
   0.230000 1 100 Rx d 8 AD 08 63 BE 19 74 CF 2A
   0.240000 1 100 Rx d 8 D2 2D 88 E3 3E 99 F4 4F
   0.250000 1 100 Rx d 8 F7 52 AD 08 63 BE 19 74
   0.260000 1 100 Rx d 8 1C 77 D2 2D 88 E3 3E 99
   0.270000 1 100 Rx d 8 41 9C F7 52 AD 08 63 BE
   0.280000 1 100 Rx d 8 66 C1 1C 77 D2 2D 88 E3
   0.290000 1 100 Rx d 8 8B E6 41 9C F7 52 AD 08
   0.300000 1 101 Rx d 4 B0 0B 66 C1
   0.310000 1 100 Rx d 8 D5 30 8B E6 41 9C F7 52
   0.320000 1 100 Rx d 8 FA 55 B0 0B 66 C1 1C 77
   0.330000 1 100 Rx d 8 1F 7A D5 30 8B E6 41 9C
   0.340000 1 100 Rx d 8 44 9F FA 55 B0 0B 66 C1
   0.350000 1 100 Rx d 8 69 C4 1F 7A D5 30 8B E6
   0.360000 1 100 Rx d 8 8E E9 44 9F FA 55 B0 0B
   0.370000 1 100 Rx d 8 B3 0E 69 C4 1F 7A D5 30
   0.380000 1 100 Rx d 8 D8 33 8E E9 44 9F FA 55
   0.390000 1 100 Rx d 8 FD 58 B3 0E 69 C4 1F 7A
   0.400000 1 101 Rx d 4 22 7D D8 33
   0.410000 1 100 Rx d 8 47 A2 FD 58 B3 0E 69 C4
   0.420000 1 100 Rx d 8 6C C7 22 7D D8 33 8E E9
   0.430000 1 100 Rx d 8 91 EC 47 A2 FD 58 B3 0E
   0.440000 1 100 Rx d 8 B6 11 6C C7 22 7D D8 33
   0.450000 1 100 Rx d 8 DB 36 91 EC 47 A2 FD 58
   0.460000 1 100 Rx d 8 00 5B B6 11 6C C7 22 7D
   0.470000 1 100 Rx d 8 25 80 DB 36 91 EC 47 A2
   0.480000 1 100 Rx d 8 4A A5 00 5B B6 11 6C C7
   0.490000 1 100 Rx d 8 6F CA 25 80 DB 36 91 EC
   0.500000 1 101 Rx d 4 94 EF 4A A5
   0.510000 1 100 Rx d 8 B9 14 6F CA 25 80 DB 36
   0.520000 1 100 Rx d 8 DE 39 94 EF 4A A5 00 5B
   0.530000 1 100 Rx d 8 03 5E B9 14 6F CA 25 80
   0.540000 1 100 Rx d 8 28 83 DE 39 94 EF 4A A5
   0.550000 1 100 Rx d 8 4D A8 03 5E B9 14 6F CA
   0.560000 1 100 Rx d 8 72 CD 28 83 DE 39 94 EF
   0.570000 1 100 Rx d 8 97 F2 4D A8 03 5E B9 14
   0.580000 1 100 Rx d 8 BC 17 72 CD 28 83 DE 39
   0.590000 1 100 Rx d 8 E1 3C 97 F2 4D A8 03 5E
   0.600000 1 101 Rx d 4 06 61 BC 17
   0.610000 1 100 Rx d 8 2B 86 E1 3C 97 F2 4D A8
   0.620000 1 100 Rx d 8 50 AB 06 61 BC 17 72 CD
   0.630000 1 100 Rx d 8 75 D0 2B 86 E1 3C 97 F2
   0.640000 1 100 Rx d 8 9A F5 50 AB 06 61 BC 17
   0.650000 1 100 Rx d 8 BF 1A 75 D0 2B 86 E1 3C
   0.660000 1 100 Rx d 8 E4 3F 9A F5 50 AB 06 61
   0.670000 1 100 Rx d 8 09 64 BF 1A 75 D0 2B 86
   0.680000 1 100 Rx d 8 2E 89 E4 3F 9A F5 50 AB
   0.690000 1 100 Rx d 8 53 AE 09 64 BF 1A 75 D0
   0.700000 1 101 Rx d 4 78 D3 2E 89
   0.710000 1 100 Rx d 8 9D F8 53 AE 09 64 BF 1A
   0.720000 1 100 Rx d 8 C2 1D 78 D3 2E 89 E4 3F
   0.730000 1 100 Rx d 8 E7 42 9D F8 53 AE 09 64
   0.740000 1 100 Rx d 8 0C 67 C2 1D 78 D3 2E 89
   0.750000 1 100 Rx d 8 31 8C E7 42 9D F8 53 AE
   0.760000 1 100 Rx d 8 56 B1 0C 67 C2 1D 78 D3
   0.770000 1 100 Rx d 8 7B D6 31 8C E7 42 9D F8
   0.780000 1 100 Rx d 8 A0 FB 56 B1 0C 67 C2 1D
   0.790000 1 100 Rx d 8 C5 20 7B D6 31 8C E7 42
   0.800000 1 101 Rx d 4 EA 45 A0 FB
   0.810000 1 100 Rx d 8 0F 6A C5 20 7B D6 31 8C
   0.820000 1 100 Rx d 8 34 8F EA 45 A0 FB 56 B1
   0.830000 1 100 Rx d 8 59 B4 0F 6A C5 20 7B D6
   0.840000 1 100 Rx d 8 7E D9 34 8F EA 45 A0 FB
   0.850000 1 100 Rx d 8 A3 FE 59 B4 0F 6A C5 20
   0.860000 1 100 Rx d 8 C8 23 7E D9 34 8F EA 45
   0.870000 1 100 Rx d 8 ED 48 A3 FE 59 B4 0F 6A
   0.880000 1 100 Rx d 8 12 6D C8 23 7E D9 34 8F
   0.890000 1 100 Rx d 8 37 92 ED 48 A3 FE 59 B4
   0.900000 1 101 Rx d 4 5C B7 12 6D
   0.910000 1 100 Rx d 8 81 DC 37 92 ED 48 A3 FE
   0.920000 1 100 Rx d 8 A6 01 5C B7 12 6D C8 23
   0.930000 1 100 Rx d 8 CB 26 81 DC 37 92 ED 48
   0.940000 1 100 Rx d 8 F0 4B A6 01 5C B7 12 6D
   0.950000 1 100 Rx d 8 15 70 CB 26 81 DC 37 92
   0.960000 1 100 Rx d 8 3A 95 F0 4B A6 01 5C B7
   0.970000 1 100 Rx d 8 5F BA 15 70 CB 26 81 DC
   0.980000 1 100 Rx d 8 84 DF 3A 95 F0 4B A6 01
   0.990000 1 100 Rx d 8 A9 04 5F BA 15 70 CB 26
   1.000000 1 101 Rx d 4 CE 29 84 DF
   0.305000 1 ErrorFrame Flags = 0x0001 CodeExt = 0x0000 Code = 0x0002 ID = 0x00000000 DLC = 0 Position = 0 Length = 0
   0.315000 1 ErrorFrame Flags = 0x0001 CodeExt = 0x0000 Code = 0x0001 ID = 0x00000000 DLC = 0 Position = 0 Length = 0
   0.325000 1 ErrorFrame Flags = 0x0001 CodeExt = 0x0000 Code = 0x0004 ID = 0x00000000 DLC = 0 Position = 0 Length = 0
   0.335000 1 ErrorFrame Flags = 0x0001 CodeExt = 0x0000 Code = 0x0005 ID = 0x00000000 DLC = 0 Position = 0 Length = 0
   0.345000 1 ErrorFrame Flags = 0x0001 CodeExt = 0x0000 Code = 0x0007 ID = 0x00000000 DLC = 0 Position = 0 Length = 0
   0.355000 1 ErrorFrame Flags = 0x0001 CodeExt = 0x0000 Code = 0x0000 ID = 0x00000000 DLC = 0 Position = 0 Length = 0
   0.365000 1 ErrorFrame Flags = 0x0001 CodeExt = 0x0000 Code = 0x0003 ID = 0x00000000 DLC = 0 Position = 0 Length = 0
   0.420000 1 ErrorFrame  Stuff Error
   0.430000 1 OverloadFrame
   0.500000 CAN 1 Status:chip status warning level
   0.550000 CAN 1 Status:chip status error passive
   0.600000 CAN 1 Status:chip status busoff
   0.620000 CAN 1 Bus Off
   0.800000 CAN 1 Status:chip status error active
   0.500000 1  Statistic: D 50 R 0 XD 0 XR 0 E 6 O 1 BusLoad 6.4 %
   1.000000 1  Statistic: D 100 R 0 XD 0 XR 0 E 12 O 1 BusLoad 8.2 %
End Triggerblock Wed Sep 19 10:00:01 2026
